<Qucs Dataset 0.0.19>
<indep acfrequency 19>
  +1.00000000000000002082e-002
  +2.78255940220712462418e-002
  +7.74263682681127080043e-002
  +2.15443469003188420308e-001
  +5.99484250318941036539e-001
  +1.66810053720005879718e+000
  +4.64158883361278196134e+000
  +1.29154966501488441821e+001
  +3.59381366380462807797e+001
  +1.00000000000000099476e+002
  +2.78255940220712432165e+002
  +7.74263682681127420437e+002
  +2.15443469003188647548e+003
  +5.99484250318941121805e+003
  +1.66810053720005998912e+004
  +4.64158883361277767108e+004
  +1.29154966501488423091e+005
  +3.59381366380462481175e+005
  +1.00000000000000186265e+006
</indep>
<dep Tdb_c acfrequency>
  +7.59662462328663908471e-010
  +5.88178616036978496069e-009
  +4.55405207096430350459e-008
  +3.52603706088871296683e-007
  +2.73008270066910165876e-006
  +2.11380544116943713633e-005
  +1.63665210469341945720e-004
  +1.26725615437447937037e-003
  +9.81525369101987101017e-003
  +7.61968699864955245626e-002
  +6.02035544625230789606e-001
  +5.08085313510839053919e+000
  -1.15844497757764948176e+001
  -3.08931565209051370857e+001
  -4.88569691009048057140e+001
  -6.66585759937288315768e+001
  -8.44394281189014748179e+001
  -1.02217602908860655475e+002
  -1.19995431961815143040e+002
</dep>
<dep argT_c acfrequency>
  -3.14159765123538692322e+000
  -3.14160655983553738224e+000
  -3.14163134854482395397e+000
  -3.14170032460471970737e+000
  -3.14189225467063115715e+000
  -3.14242631324505250490e+000
  -3.14391240097808877252e+000
  -3.14804834772213704142e+000
  -3.15957453703027724146e+000
  -3.19203083922850883170e+000
  -3.29119307816588380078e+000
  -3.90937240071277525288e+000
  -5.99552329648473225632e+000
  -6.19759673790459508780e+000
  -6.25311037240192391096e+000
  -6.27240796357467012001e+000
  -6.27931356664563722347e+000
  -6.28179394240121169446e+000
  -6.28268527969664880573e+000
</dep>
<dep Vi.v acfrequency>
  -1.00000000000000000000e+001
  -1.00000000000000000000e+001
  -1.00000000000000000000e+001
  -1.00000000000000000000e+001
  -1.00000000000000000000e+001
  -1.00000000000000000000e+001
  -1.00000000000000000000e+001
  -1.00000000000000000000e+001
  -1.00000000000000000000e+001
  -1.00000000000000000000e+001
  -1.00000000000000000000e+001
  -1.00000000000000000000e+001
  -1.00000000000000000000e+001
  -1.00000000000000000000e+001
  -1.00000000000000000000e+001
  -1.00000000000000000000e+001
  -1.00000000000000000000e+001
  -1.00000000000000000000e+001
  -1.00000000000000000000e+001
</dep>
<dep Voc.v acfrequency>
  +1.00000000007497114041e+001-j4.99764559420482466258e-005
  +1.00000000058047362472e+001-j1.39062457534548433507e-004
  +1.00000000449439632177e+001-j3.86949552240317641225e-004
  +1.00000003479847876520e+001-j1.07671019089375266491e-003
  +1.00000026943201838492e+001-j2.99601170524416626426e-003
  +1.00000208611637440015e+001-j8.33661587498926888451e-003
  +1.00001615216775228134e+001-j2.31978901835075169979e-002
  +1.00012506793873861000e+001-j6.45659122788835443396e-002
  +1.00096880905463248013e+001-j1.80012447167577666063e-001
  +1.00752813888620806893e+001-j5.08610289538420579092e-001
  +1.05979953194000700023e+001-j1.59739916806938708760e+000
  +1.29135600718808252196e+001-j1.24663598059022344700e+001
  -2.52670926292037467675e+000-j7.47573349662973618557e-001
  -2.84282114438336896978e-001-j2.43908862431290174300e-002
  -3.60541370530985672005e-002-j1.08465286351178136215e-003
  -4.64564455170372869741e-003-j5.00696461637750722673e-005
  -5.99826072109860969350e-004-j2.32238252118044385952e-006
  -7.74674809791674054893e-005-j1.07785594057746569874e-007
  -1.00052592806938218809e-005-j5.00290503122058360930e-009
</dep>
<dep V1.i acfrequency>
  -3.04590993669585913195e-012-j6.09468974842112481166e-007
  -2.35833744748262642706e-011-j1.69588362715773102522e-006
  -1.82597505376707585205e-010-j4.71889695026626395009e-006
  -1.41378626957378181524e-009-j1.31306114749210407804e-005
  -1.09464396285020949207e-008-j3.65367149890067453443e-005
  -8.47546658298044387193e-008-j1.01665764512641354652e-004
  -6.56246133289518844077e-007-j2.82895008078672030149e-004
  -5.08236680133853534262e-006-j7.87257898645180595812e-004
  -3.94284490526221226042e-005-j2.19243992913079098830e-003
  -3.09982191735891799561e-004-j6.14057141885522832919e-003
  -2.70900309359185320970e-003-j1.79729667324219355429e-002
  -5.88274670046000647261e-002-j6.09377589664002045078e-002
  -9.81609486184463475578e-003+j3.31772364869742236726e-002
  -8.91162618886692792231e-004+j1.03867317931876038811e-002
  -1.10271832559877269730e-004+j3.66546376076284669693e-003
  -1.41642241730660645160e-005+j1.31420842566991108100e-003
  -1.82808534859857861543e-006+j4.72158761158786581709e-004
  -2.36084719185095068175e-007+j1.69678412525476164999e-004
  -3.04911539980974458635e-008+j6.09789511637684122848e-005
</dep>
<dep _net2.v acfrequency>
  +4.44089209850062616169e-016
  +0.00000000000000000000e+000-j2.32830643653869628906e-010
  +0.00000000000000000000e+000-j9.31322574615478515625e-010
  -2.27373675443232059479e-013
  +1.81898940354585647583e-012
  +0.00000000000000000000e+000
  +0.00000000000000000000e+000-j5.96046447753906250000e-008
  -9.31322574615478515625e-010-j1.19209289550781250000e-007
  +0.00000000000000000000e+000
  -5.96046447753906250000e-008-j9.53674316406250000000e-007
  +0.00000000000000000000e+000-j1.63840000000000000000e+004
  +7.62939453125000000000e-006
  -7.62939453125000000000e-006
  +0.00000000000000000000e+000+j1.08750000000000000000e+001
  +2.50000000000000000000e-001-j6.09375000000000000000e-001
  +7.81250000000000000000e-003-j4.84130859375000000000e-001
  -7.81250000000000000000e-003+j6.97967529296875000000e-001
  +0.00000000000000000000e+000+j2.31070518493652343750e-002
  -6.10351562500000000000e-005-j1.87405347824096679688e-002
</dep>
<dep _net3.v acfrequency>
  +9.99475542653658819805e-010-j4.99502232248356924603e-015
  +7.73857270953779459493e-009-j2.32938258147686986522e-010
  +5.99169582823343450985e-008-j9.33641058622953412716e-010
  +4.63915034432167088371e-007-j4.99502272715574703291e-011
  +3.59193005235371929824e-006-j1.07614561320756419372e-009
  +2.78110463426971173942e-005-j2.31849526775496815410e-008
  +2.15333860453343917942e-004-j5.59125701186232079078e-007
  +1.66743253377362051458e-003-j1.08837992682983497551e-005
  +1.29212233686393489912e-002-j2.32372978852801525358e-004
  +1.00699868979780712830e-001-j5.08438686660836469677e-003
  +8.20133573068660970407e-001-j1.63841236158960091416e+004
  +7.73741999565256133309e+000-j7.46946357065741750603e+000
  -1.17217971136436442947e+001-j3.46810674159485987644e+000
  -1.02112067796896273109e+001+j9.99889710671548925802e+000
  -9.77701184678318746535e+000-j9.11027681246065146325e-001
  -9.99567167816951140935e+000-j5.91946019926096411723e-001
  -1.00082624230735230952e+001+j6.59248188499333198642e-001
  -1.00000581085340058962e+001+j9.19331423668212979750e-003
  -1.00000685401409015185e+001-j2.37408137807437087663e-002
</dep>
<dep _net0.v acfrequency>
  +1.00000000007497114041e+001-j4.99764559420482466258e-005
  +1.00000000058047362472e+001-j1.39062690365192087377e-004
  +1.00000000449439632177e+001-j3.86950483562892256703e-004
  +1.00000003479845602783e+001-j1.07671019089375266491e-003
  +1.00000026943220028386e+001-j2.99601170524416626426e-003
  +1.00000208611637440015e+001-j8.33661587498926888451e-003
  +1.00001615216775228134e+001-j2.31979497881522923886e-002
  +1.00012506784560635253e+001-j6.45660314881730951209e-002
  +1.00096880905463248013e+001-j1.80012447167577666063e-001
  +1.00752813292574359139e+001-j5.08611243212736985342e-001
  +1.05979953194000700023e+001-j1.63855973991680693871e+004
  +1.29135677012753564696e+001-j1.24663598059022344700e+001
  -2.52671689231490592675e+000-j7.47573349662973618557e-001
  -2.84282114438336896978e-001+j1.08506091137568709826e+001
  +2.13945862946901432800e-001-j6.10459652863511781362e-001
  +3.16685544829627130259e-003-j4.84180929021163775072e-001
  -8.41232607210986096935e-003+j6.97965206914353819556e-001
  -7.74674809791674054893e-005+j2.31069440637711766284e-002
  -7.10404155306938218809e-005-j1.87405397853146991893e-002
</dep>
<dep _net1.v acfrequency>
  +7.49711404068875708617e-010-j4.99764559420482466258e-005
  +5.80473624722799286246e-009-j1.39062690365192087377e-004
  +4.49439632177472958574e-008-j3.86950483562892256703e-004
  +3.47984560278291610302e-007-j1.07671019089375266491e-003
  +2.69432200283858946932e-006-j2.99601170524416626426e-003
  +2.08611637440014874301e-005-j8.33661587498926888451e-003
  +1.61521677522813433825e-004-j2.31979497881522923886e-002
  +1.25067845606352534560e-003-j6.45660314881730951209e-002
  +9.68809054632480126656e-003-j1.80012447167577666063e-001
  +7.52813292574359138598e-002-j5.08611243212736985342e-001
  +5.97995319400070002303e-001-j1.63855973991680693871e+004
  +2.91356770127535646964e+000-j1.24663598059022344700e+001
  -1.25267168923149050386e+001-j7.47573349662973618557e-001
  -1.02842821144383371745e+001+j1.08506091137568709826e+001
  -9.78605413705309779004e+000-j6.10459652863511781362e-001
  -9.99683314455170446422e+000-j4.84180929021163775072e-001
  -1.00084123260721096216e+001+j6.97965206914353819556e-001
  -1.00000774674809793652e+001+j2.31069440637711766284e-002
  -1.00000710404155306321e+001-j1.87405397853146991893e-002
</dep>
