<Qucs Dataset 0.0.19>
<indep time 11>
  +0.00000000000000000000e+000
  +4.99999999999999956198e-006
  +9.99999999999999912396e-006
  +1.49999999999999986859e-005
  +1.99999999999999982479e-005
  +2.49999999999999978099e-005
  +2.99999999999999973719e-005
  +3.49999999999999969339e-005
  +3.99999999999999964959e-005
  +4.49999999999999960578e-005
  +4.99999999999999956198e-005
</indep>
<dep VL.Vt time>
  +9.99990000099998965766e+000
  +6.06516579022709034774e+000
  +3.67862083526858185678e+000
  +2.23114039238838168799e+000
  +1.35322167622017341948e+000
  +8.20750863658882390261e-001
  +4.97800087476908847961e-001
  +3.01923815518056470886e-001
  +1.83121746598915779991e-001
  +1.11066305186289168705e-001
  +6.73634389304533787168e-002
</dep>
<dep IL.It time>
  +9.99990000099998932626e-008
  +3.93483420977290988124e-003
  +6.32137916473141797669e-003
  +7.76885960761161849242e-003
  +8.64677832377982666379e-003
  +9.17924913634111765137e-003
  +9.50219991252309117979e-003
  +9.69807618448194352911e-003
  +9.81687825340108420613e-003
  +9.88893369481371083130e-003
  +9.93263656106954662128e-003
</dep>
<dep V1.It time>
  -9.99990000099998932626e-008
  -3.93483420977290988124e-003
  -6.32137916473141797669e-003
  -7.76885960761161849242e-003
  -8.64677832377982666379e-003
  -9.17924913634111765137e-003
  -9.50219991252309117979e-003
  -9.69807618448194352911e-003
  -9.81687825340108420613e-003
  -9.88893369481371083130e-003
  -9.93263656106954662128e-003
</dep>
<dep _net0.Vt time>
  +0.00000000000000000000e+000
  +0.00000000000000000000e+000
  -8.67061316967010498047e-007
  -8.67526978254318237305e-007
  +0.00000000000000000000e+000
  +0.00000000000000000000e+000
  +0.00000000000000000000e+000
  +0.00000000000000000000e+000
  +0.00000000000000000000e+000
  +0.00000000000000000000e+000
  -1.73505395650863647461e-006
</dep>
<dep _net3.Vt time>
  -9.99990000099998965766e+000
  -6.06516579022709034774e+000
  -3.67862170232989882379e+000
  -2.23114125991535994231e+000
  -1.35322167622017341948e+000
  -8.20750863658882390261e-001
  -4.97800087476908847961e-001
  -3.01923815518056470886e-001
  -1.83121746598915779991e-001
  -1.11066305186289168705e-001
  -6.73651739844098873533e-002
</dep>
<dep _net1.Vt time>
  -1.00000000000000000000e+001
  -1.00000000000000000000e+001
  -1.00000008670613169670e+001
  -1.00000008675269782543e+001
  -1.00000000000000000000e+001
  -1.00000000000000000000e+001
  -1.00000000000000000000e+001
  -1.00000000000000000000e+001
  -1.00000000000000000000e+001
  -1.00000000000000000000e+001
  -1.00000017350539565086e+001
</dep>
<dep _net2.Vt time>
  -9.99990000099998965766e+000
  -6.06516579022709034774e+000
  -3.67862170232989882379e+000
  -2.23114125991535994231e+000
  -1.35322167622017341948e+000
  -8.20750863658882390261e-001
  -4.97800087476908847961e-001
  -3.01923815518056470886e-001
  -1.83121746598915779991e-001
  -1.11066305186289168705e-001
  -6.73651739844098873533e-002
</dep>
