<Qucs Dataset 0.0.19>
<indep time 11>
  +0.00000000000000000000e+000
  +1.00000000000000002082e-003
  +2.00000000000000004163e-003
  +3.00000000000000006245e-003
  +4.00000000000000008327e-003
  +5.00000000000000010408e-003
  +6.00000000000000012490e-003
  +7.00000000000000014572e-003
  +8.00000000000000016653e-003
  +9.00000000000000105471e-003
  +1.00000000000000002082e-002
</indep>
<dep VC.Vt time>
  +9.99999990000000183171e-008
  +9.51627612915817322481e-001
  +1.81269573357421021065e+000
  +2.59182229026879218381e+000
  +3.29680500527960473889e+000
  +3.93469956460937186904e+000
  +4.51189031491328496060e+000
  +5.03415399840737620707e+000
  +5.50671762655490759641e+000
  +5.93431079396395944059e+000
  +6.32121301394992585188e+000
</dep>
<dep V1.It time>
  -9.99999990000000060775e-003
  -9.04837238708418312161e-003
  -8.18730426642579056651e-003
  -7.40817770973120799660e-003
  -6.70319499472039545540e-003
  -6.06530043539062809627e-003
  -5.48810968508671535165e-003
  -4.96584600159262392477e-003
  -4.49328237344509291012e-003
  -4.06568920603604059411e-003
  -3.67878698605007435282e-003
</dep>
<dep Int.It time>
  +9.99999990000000060775e-003
  +9.04837238708416750910e-003
  +8.18730426642576801510e-003
  +7.40817770973111952570e-003
  +6.70319499472036769983e-003
  +6.06530043539045375656e-003
  +5.48810968508689489553e-003
  +4.96584600159254152540e-003
  +4.49328237344492897876e-003
  +4.06568920603629039429e-003
  +3.67878698605022267168e-003
</dep>
<dep _net2.Vt time>
  +0.00000000000000000000e+000
  +0.00000000000000000000e+000
  +0.00000000000000000000e+000
  +0.00000000000000000000e+000
  +0.00000000000000000000e+000
  +0.00000000000000000000e+000
  +0.00000000000000000000e+000
  +0.00000000000000000000e+000
  +0.00000000000000000000e+000
  +0.00000000000000000000e+000
  +0.00000000000000000000e+000
</dep>
<dep _net1.Vt time>
  +9.99999990000000183171e-008
  +9.51627612915817322481e-001
  +1.81269573357421021065e+000
  +2.59182229026879218381e+000
  +3.29680500527960473889e+000
  +3.93469956460937186904e+000
  +4.51189031491328496060e+000
  +5.03415399840737620707e+000
  +5.50671762655490759641e+000
  +5.93431079396395944059e+000
  +6.32121301394992585188e+000
</dep>
<dep _net0.Vt time>
  +1.00000000000000000000e+001
  +1.00000000000000000000e+001
  +1.00000000000000000000e+001
  +1.00000000000000000000e+001
  +1.00000000000000000000e+001
  +1.00000000000000000000e+001
  +1.00000000000000000000e+001
  +1.00000000000000000000e+001
  +1.00000000000000000000e+001
  +1.00000000000000000000e+001
  +1.00000000000000000000e+001
</dep>
