<Qucs Dataset 0.0.19>
<indep time 11>
  +0.00000000000000000000e+000
  +5.00000000000000010408e-003
  +1.00000000000000002082e-002
  +1.50000000000000011796e-002
  +2.00000000000000004163e-002
  +2.50000000000000013878e-002
  +3.00000000000000023592e-002
  +3.50000000000000033307e-002
  +4.00000000000000008327e-002
  +4.50000000000000052736e-002
  +5.00000000000000027756e-002
</indep>
<dep VC.Vt time>
  +9.99999990000000183171e-008
  +3.93481911258673422438e+000
  +6.32137764276762581517e+000
  +7.76886086362030781061e+000
  +8.64678095154342685191e+000
  +9.17925253371823757220e+000
  +9.50220446262840567897e+000
  +9.69807931278699975053e+000
  +9.81688061564701897055e+000
  +9.88893526314480553197e+000
  +9.93263758630127036042e+000
</dep>
<dep V1.It time>
  -9.99999990000000060775e-003
  -6.06518088741326601154e-003
  -3.67862235723237420565e-003
  -2.23113913637969230042e-003
  -1.35321904845657307870e-003
  -8.20747466281762476370e-004
  -4.97795537371594366133e-004
  -3.01920687213000273758e-004
  -1.83119384352981034872e-004
  -1.11064736855194474757e-004
  -6.73624136987296343732e-005
</dep>
<dep Int.It time>
  +9.99999990000000060775e-003
  +6.06518088741324432750e-003
  +3.67862235723235382265e-003
  +2.23113913637969620354e-003
  +1.35321904845652342224e-003
  +8.20747466281779932025e-004
  +4.97795537371543408631e-004
  +3.01920687212920259637e-004
  +1.83119384352972388360e-004
  +1.11064736855264541322e-004
  +6.73624136987341338122e-005
</dep>
<dep _net2.Vt time>
  +0.00000000000000000000e+000
  +0.00000000000000000000e+000
  +0.00000000000000000000e+000
  +0.00000000000000000000e+000
  +0.00000000000000000000e+000
  +0.00000000000000000000e+000
  +0.00000000000000000000e+000
  +0.00000000000000000000e+000
  +0.00000000000000000000e+000
  +0.00000000000000000000e+000
  +0.00000000000000000000e+000
</dep>
<dep _net1.Vt time>
  +9.99999990000000183171e-008
  +3.93481911258673422438e+000
  +6.32137764276762581517e+000
  +7.76886086362030781061e+000
  +8.64678095154342685191e+000
  +9.17925253371823757220e+000
  +9.50220446262840567897e+000
  +9.69807931278699975053e+000
  +9.81688061564701897055e+000
  +9.88893526314480553197e+000
  +9.93263758630127036042e+000
</dep>
<dep _net0.Vt time>
  +1.00000000000000000000e+001
  +1.00000000000000000000e+001
  +1.00000000000000000000e+001
  +1.00000000000000000000e+001
  +1.00000000000000000000e+001
  +1.00000000000000000000e+001
  +1.00000000000000000000e+001
  +1.00000000000000000000e+001
  +1.00000000000000000000e+001
  +1.00000000000000000000e+001
  +1.00000000000000000000e+001
</dep>
